!VNA Trans/Linear/50 to 200/Path 2
RefreshEachScan=1TraceModes=1,1DoHist=0ActiveGraphs=0 1TraceWidths=1 1TraceColors=0 255 255;;255 200 90EndContextStartContext SweepVersion=BmsaMode=VectorTransFreqMode=0BaseFreq=0SpecialGraph=0RLCSpec=0Wait=0PlaneAdj=0Path=2SGPreset=10Offset=0IsTG=1NormRev=0VideoFilter=WideDUTDirection=0GraphData=40 20Autoscale=0 0S21Jig=Series 50 0S11Bridge=50 50 ReflectMinMaxXAxis=50 200MinMaxY1Axis=-180 180MinMaxY2Axis=-100 0IsLinear=1 1 1NumSteps=400SweepDir=1EndContext
! BandSweep Line Calibration Data
!
!07/29/19; 14:59:58
!Linear Sweep; Path 2; S21Jig=Series; S21JigR0=50
# MHz S DB R 50
! MHz  S21_DB  S21_Degrees
50 -21.97699 113.03
50.375 -21.75726 106.4
50.75 -21.60344 101.31
51.125 -21.40934 95.95
51.5 -21.24454 91.19
51.875 -21.10172 86.52
52.25 -21.01016 81.81
52.625 -20.92227 77.44
53 -20.80508 73.29
53.375 -20.70254 69.14
53.75 -20.58901 64.94
54.125 -20.50111 60.88
54.5 -20.39857 56.52
54.875 -20.318 52.51
55.25 -20.24476 48.79
55.625 -20.17518 45.2
56 -20.10193 41.48
56.375 -20.04334 38.16
56.75 -19.98474 34.56
57.125 -19.98108 31.42
57.5 -19.97375 28.51
57.875 -19.92248 25.48
58.25 -19.8529 21.4
58.625 -19.80529 18.37
59 -19.80529 15.41
59.375 -19.80529 12.68
59.75 -19.75036 9.74
60.125 -19.70641 6.87
60.5 -19.65514 4.15
60.875 -19.61486 1.6
61.25 -19.57091 -1.07
61.625 -19.53429 -3.56
62 -19.54894 -6.11
62.375 -19.54527 -8.6
62.75 -19.494 -11.23
63.125 -19.44639 -13.94
63.5 -19.40245 -16.56
63.875 -19.40977 -19.16
64.25 -19.40977 -21.53
64.625 -19.3585 -24.1
65 -19.3585 -26.38
65.375 -19.31089 -28.7
65.75 -19.25596 -30.9
66.125 -19.21201 -33.18
66.5 -19.16807 -35.31
66.875 -19.17173 -37.43
67.25 -19.17173 -39.32
67.625 -19.12778 -41.3
68 -19.07285 -43.29
68.375 -19.02524 -45.34
68.75 -19.03623 -47.12
69.125 -19.02158 -49.06
69.5 -18.96664 -51.08
69.875 -18.9227 -52.87
70.25 -18.87509 -54.89
70.625 -18.82748 -56.71
71 -18.79086 -58.38
71.375 -18.73959 -60.49
71.75 -18.7579 -62.31
72.125 -18.75423 -64.09
72.5 -18.71395 -65.89
72.875 -18.67 -67.82
73.25 -18.63338 -69.59
73.625 -18.64803 -71.29
74 -18.65535 -73
74.375 -18.61507 -74.75
74.75 -18.58211 -76.36
75.125 -18.54915 -78.27
75.5 -18.52351 -80.02
75.875 -18.54549 -81.69
76.25 -18.51619 -83.41
76.625 -18.55281 -84.94
77 -18.57845 -86.53
77.375 -18.55647 -88.13
77.75 -18.54183 -89.78
78.125 -18.52718 -91.39
78.5 -18.57479 -92.73
78.875 -18.60775 -94.26
79.25 -18.60042 -95.72
79.625 -18.5931 -97.24
80 -18.59676 -98.7
80.375 -18.59676 -99.72
80.75 -18.60042 -100.45
81.125 -18.61141 -99.93
81.5 -18.67733 -97.28
81.875 -18.7286 -93.22
82.25 -18.73592 -87.38
82.625 -18.76156 -81.15
83 -18.76888 -75.02
83.375 -18.84579 -68.56
83.75 -18.91171 -61.92
84.125 -18.9227 -56.06
84.5 -18.94833 -50.36
84.875 -18.96298 -44.24
85.25 -18.99228 -38.63
85.625 -19.02524 -33.28
86 -19.05454 -28.15
86.375 -19.0875 -22.7
86.75 -19.12412 -17.78
87.125 -19.15342 -12.89
87.5 -19.19736 -7.95
87.875 -19.23765 -2.9
88.25 -19.34019 1.97
88.625 -19.4171 6.29
89 -19.45006 10.38
89.375 -19.49767 15.94
89.75 -19.53795 20.18
90.125 -19.63317 24.05
90.5 -19.70275 27.69
90.875 -19.73205 31.18
91.25 -19.77233 35.13
91.625 -19.80163 38.6
92 -19.84558 42.45
92.375 -19.87487 45.65
92.75 -19.91516 48.78
93.125 -20.00305 51.7
93.5 -20.0763 54.48
93.875 -20.10559 57.31
94.25 -20.13489 60.04
94.625 -20.16785 62.7
95 -20.25208 65.16
95.375 -20.318 67.31
95.75 -20.34364 70
96.125 -20.42421 72.51
96.5 -20.43886 74.62
96.875 -20.46815 77.01
97.25 -20.48647 79.16
97.625 -20.50844 81.19
98 -20.58535 83.01
98.375 -20.64394 84.82
98.75 -20.66591 86.78
99.125 -20.68056 88.31
99.5 -20.69521 89.96
99.875 -20.75747 91.51
100.25 -20.81973 93.14
100.625 -20.82705 94.54
101 -20.83804 95.98
101.375 -20.85635 97.65
101.75 -20.86367 99.09
102.125 -20.87832 100.74
102.5 -20.88931 102.83
102.875 -20.95523 103.83
103.25 -20.99918 104.87
103.625 -20.99918 105.86
104 -21.00284 106.74
104.375 -20.99918 107.74
104.75 -21.05777 -74.76
105.125 -21.10172 -79.05
105.5 -21.08707 -83.06
105.875 -21.08341 -87.52
106.25 -21.07974 -91.3
106.625 -21.07242 -95.14
107 -21.07974 -98.96
107.375 -21.07608 -102.6
107.75 -21.12369 -105.96
108.125 -21.14566 -109.51
108.5 -21.13834 -112.77
108.875 -21.12003 -116
109.25 -21.10538 -119.42
109.625 -21.13834 -123.03
110 -21.16764 -126.05
110.375 -21.13468 -129.28
110.75 -21.11637 -132.27
111.125 -21.09073 -135.36
111.5 -21.06876 -138.15
111.875 -21.04312 -141.01
112.25 -21.02115 -143.87
112.625 -21.05411 -146.6
113 -21.06876 -149.17
113.375 -21.03946 -152.21
113.75 -20.99918 -155.06
114.125 -20.96988 -157.89
114.5 -20.99551 -160.26
114.875 -20.99918 -163.24
115.25 -20.95523 -165.7
115.625 -20.92593 -168.11
116 -20.88565 -170.55
116.375 -20.85269 -172.72
116.75 -20.82339 -174.9
117.125 -20.78677 -177.14
117.5 -20.75381 -179.43
117.875 -20.72451 178.51
118.25 -20.68422 176.3
118.625 -20.65493 174.2
119 -20.62197 172.3
119.375 -20.6476 170.42
119.75 -20.65126 168.49
120.125 -20.61098 166.54
120.5 -20.56703 164.72
120.875 -20.52675 162.89
121.25 -20.5414 161.04
121.625 -20.5414 159.3
122 -20.49379 157.51
122.375 -20.44984 155.87
122.75 -20.39857 154.15
123.125 -20.35829 152.36
123.5 -20.31068 150.64
123.875 -20.26307 148.97
124.25 -20.27039 147.18
124.625 -20.26307 145.52
125 -20.20447 143.67
125.375 -20.14588 141.89
125.75 -20.09827 140.35
126.125 -20.09827 138.63
126.5 -20.09095 137.19
126.875 -20.02869 135.6
127.25 -20.02136 133.99
127.625 -19.95544 132.28
128 -19.89685 130.66
128.375 -19.84558 129.21
128.75 -19.78698 127.75
129.125 -19.79064 126.33
129.5 -19.77599 124.89
129.875 -19.71374 123.47
130.25 -19.65514 122.02
130.625 -19.60753 120.6
131 -19.60387 119.31
131.375 -19.58922 117.92
131.75 -19.52696 116.44
132.125 -19.46837 114.99
132.5 -19.40611 113.41
132.875 -19.35118 111.96
133.25 -19.29624 110.57
133.625 -19.23765 109.08
134 -19.24497 107.8
134.375 -19.24131 106.46
134.75 -19.18271 105.01
135.125 -19.12778 103.65
135.5 -19.07651 102.2
135.875 -19.08383 100.98
136.25 -19.07651 99.53
136.625 -19.01791 98.06
137 -18.96298 96.65
137.375 -18.91903 95.18
137.75 -18.87143 93.85
138.125 -18.88241 92.65
138.5 -18.83114 91.31
138.875 -18.85311 90.06
139.25 -18.84213 88.62
139.625 -18.79452 87.24
140 -18.7579 86.06
140.375 -18.72127 84.79
140.75 -18.74325 83.7
141.125 -18.74691 82.44
141.5 -18.70663 81.15
141.875 -18.67 79.86
142.25 -18.63704 78.56
142.625 -18.5931 77.2
143 -18.5638 75.96
143.375 -18.54183 74.69
143.75 -18.56746 73.59
144.125 -18.58211 72.37
144.5 -18.52718 -106.71
144.875 -18.49788 -103.08
145.25 -18.47591 -99.46
145.625 -18.51253 -95.83
146 -18.52718 -92.48
146.375 -18.50154 -89.24
146.75 -18.47957 -86.21
147.125 -18.45393 -83.2
147.5 -18.43562 -80.29
147.875 -18.42463 -77.62
148.25 -18.40632 -74.97
148.625 -18.39167 -72.47
149 -18.38435 -70.05
149.375 -18.37703 -67.71
149.75 -18.3697 -65.36
150.125 -18.36238 -63.05
150.5 -18.41365 -60.97
150.875 -18.45393 -59.09
151.25 -18.43928 -57.09
151.625 -18.43196 -55.09
152 -18.42463 -53.4
152.375 -18.48689 -51.63
152.75 -18.52351 -49.91
153.125 -18.51985 -48.41
153.5 -18.50887 -47.06
153.875 -18.50887 -45.75
154.25 -18.50887 -44.42
154.625 -18.51253 -43.17
155 -18.51985 -41.9
155.375 -18.58211 -40.69
155.75 -18.62239 -39.64
156.125 -18.62239 -38.61
156.5 -18.62606 -37.7
156.875 -18.62972 -36.76
157.25 -18.68831 -35.86
157.625 -18.73226 -35.04
158 -18.73226 -34.32
158.375 -18.77255 -33.63
158.75 -18.77621 -32.97
159.125 -18.77621 -32.26
159.5 -18.77621 -31.72
159.875 -18.78719 -31.17
160.25 -18.84579 -30.67
160.625 -18.8934 -30.19
161 -18.89706 -29.71
161.375 -18.90072 -29.3
161.75 -18.90439 -28.96
162.125 -18.97397 -28.56
162.5 -19.02158 -28.24
162.875 -19.02524 -27.99
163.25 -19.0289 -27.75
163.625 -19.0289 -27.55
164 -19.03623 -27.39
164.375 -19.03989 -27.27
164.75 -19.05454 -27.17
165.125 -19.12412 -27.09
165.5 -19.17173 -27
165.875 -19.17905 -27
166.25 -19.18638 -27
166.625 -19.19736 -27.04
167 -19.26695 -27.06
167.375 -19.31455 -27.11
167.75 -19.32188 -27.23
168.125 -19.32554 -27.37
168.5 -19.33287 -27.51
168.875 -19.34385 -27.69
169.25 -19.35484 -27.88
169.625 -19.36949 -28.08
170 -19.43907 -28.28
170.375 -19.49767 -28.47
170.75 -19.50865 -28.74
171.125 -19.51231 -29.02
171.5 -19.53063 -29.33
171.875 -19.59655 -29.59
172.25 -19.65514 -29.86
172.625 -19.66247 -30.24
173 -19.66979 -30.59
173.375 -19.68078 -30.97
173.75 -19.69909 -31.39
174.125 -19.71374 -32.06
174.5 -19.72839 -32.47
174.875 -19.80529 -32.83
175.25 -19.86023 -33.24
175.625 -19.86755 -33.68
176 -19.87487 -34.13
176.375 -19.88952 -34.59
176.75 -19.95911 -35.04
177.125 -20.01404 -35.41
177.5 -20.02136 -35.9
177.875 -20.02869 -36.42
178.25 -20.03601 -36.93
178.625 -20.05066 -37.47
179 -20.05799 -37.99
179.375 -20.0763 -38.58
179.75 -20.08362 -39.12
180.125 -20.10193 -39.69
180.5 -20.12024 -40.27
180.875 -20.13489 -40.86
181.25 -20.14954 -41.41
181.625 -20.22645 -41.95
182 -20.27772 -42.47
182.375 -20.28871 -43.08
182.75 -20.29237 -43.68
183.125 -20.30335 -44.26
183.5 -20.318 -44.96
183.875 -20.32899 -45.55
184.25 -20.33631 -46.16
184.625 -20.35463 -46.86
185 -20.36927 -47.56
185.375 -20.3766 -48.2
185.75 -20.39857 -48.87
186.125 -20.40956 -49.5
186.5 -20.4828 -50.1
186.875 -20.53407 -50.68
187.25 -20.53407 -51.41
187.625 -20.54872 -52.08
188 -20.55605 -52.77
188.375 -20.61831 -53.36
188.75 -20.66225 -53.96
189.125 -20.65859 -54.66
189.5 -20.66591 -55.24
189.875 -20.66591 -56
190.25 -20.66591 -56.64
190.625 -20.66591 -57.35
191 -20.66591 -58.04
191.375 -20.72451 -58.69
191.75 -20.76113 -59.25
192.125 -20.75381 -60.04
192.5 -20.73916 -60.86
192.875 -20.7355 -61.65
193.25 -20.7831 -62.26
193.625 -20.80874 -63.19
194 -20.78677 -63.95
194.375 -20.77578 -64.61
194.75 -20.75381 -65.34
195.125 -20.7355 -66.08
195.5 -20.71718 -66.77
195.875 -20.69521 -67.55
196.25 -20.7355 -68.22
196.625 -20.75747 -68.86
197 -20.72451 -69.66
197.375 -20.69155 -70.49
197.75 -20.65859 -71.41
198.125 -20.68789 -72.05
198.5 -20.70254 -72.64
198.875 -20.66591 -73.34
199.25 -20.63295 -73.99
199.625 -20.59633 -74.71
200 -20.55971 -75.46
